Freq.	V(vout)
1.00000000000000e+000	(-3.02536675131738e+000dB,1.79968606497167e+002°)
1.02329299228075e+000	(-3.02536666954666e+000dB,1.79967875248170e+002°)
1.04712854805090e+000	(-3.02536658392221e+000dB,1.79967126966168e+002°)
1.07151930523761e+000	(-3.02536649426241e+000dB,1.79966361254411e+002°)
1.09647819614318e+000	(-3.02536640037707e+000dB,1.79965577706904e+002°)
1.12201845430196e+000	(-3.02536630206706e+000dB,1.79964775908198e+002°)
1.14815362149688e+000	(-3.02536619912383e+000dB,1.79963955433166e+002°)
1.17489755493953e+000	(-3.02536609132905e+000dB,1.79963115846777e+002°)
1.20226443461741e+000	(-3.02536597845405e+000dB,1.79962256703867e+002°)
1.23026877081238e+000	(-3.02536586025942e+000dB,1.79961377548905e+002°)
1.25892541179417e+000	(-3.02536573649445e+000dB,1.79960477915745e+002°)
1.28824955169313e+000	(-3.02536560689662e+000dB,1.79959557327388e+002°)
1.31825673855641e+000	(-3.02536547119104e+000dB,1.79958615295718e+002°)
1.34896288259165e+000	(-3.02536532908984e+000dB,1.79957651321255e+002°)
1.38038426460288e+000	(-3.02536518029163e+000dB,1.79956664892880e+002°)
1.41253754462275e+000	(-3.02536502448078e+000dB,1.79955655487569e+002°)
1.44543977074593e+000	(-3.02536486132679e+000dB,1.79954622570118e+002°)
1.47910838816821e+000	(-3.02536469048359e+000dB,1.79953565592852e+002°)
1.51356124843621e+000	(-3.02536451158882e+000dB,1.79952483995342e+002°)
1.54881661891248e+000	(-3.02536432426298e+000dB,1.79951377204101e+002°)
1.58489319246111e+000	(-3.02536412810876e+000dB,1.79950244632287e+002°)
1.62181009735893e+000	(-3.02536392271008e+000dB,1.79949085679385e+002°)
1.65958690743756e+000	(-3.02536370763127e+000dB,1.79947899730896e+002°)
1.69824365246174e+000	(-3.02536348241611e+000dB,1.79946686158001e+002°)
1.73780082874937e+000	(-3.02536324658689e+000dB,1.79945444317239e+002°)
1.77827941003892e+000	(-3.02536299964339e+000dB,1.79944173550158e+002°)
1.81970085860998e+000	(-3.02536274106181e+000dB,1.79942873182966e+002°)
1.86208713666287e+000	(-3.02536247029367e+000dB,1.79941542526180e+002°)
1.90546071796325e+000	(-3.02536218676462e+000dB,1.79940180874252e+002°)
1.94984459975804e+000	(-3.02536188987327e+000dB,1.79938787505203e+002°)
1.99526231496888e+000	(-3.02536157898988e+000dB,1.79937361680231e+002°)
2.04173794466953e+000	(-3.02536125345502e+000dB,1.79935902643329e+002°)
2.08929613085404e+000	(-3.02536091257818e+000dB,1.79934409620877e+002°)
2.13796208950223e+000	(-3.02536055563633e+000dB,1.79932881821234e+002°)
2.18776162394955e+000	(-3.02536018187235e+000dB,1.79931318434319e+002°)
2.23872113856834e+000	(-3.02535979049343e+000dB,1.79929718631181e+002°)
2.29086765276777e+000	(-3.02535938066941e+000dB,1.79928081563557e+002°)
2.34422881531992e+000	(-3.02535895153100e+000dB,1.79926406363427e+002°)
2.39883291901949e+000	(-3.02535850216795e+000dB,1.79924692142548e+002°)
2.45470891568503e+000	(-3.02535803162709e+000dB,1.79922937991986e+002°)
2.51188643150958e+000	(-3.02535753891036e+000dB,1.79921142981636e+002°)
2.57039578276886e+000	(-3.02535702297263e+000dB,1.79919306159724e+002°)
2.63026799189538e+000	(-3.02535648271954e+000dB,1.79917426552305e+002°)
2.69153480392691e+000	(-3.02535591700515e+000dB,1.79915503162745e+002°)
2.75422870333816e+000	(-3.02535532462950e+000dB,1.79913534971195e+002°)
2.81838293126445e+000	(-3.02535470433610e+000dB,1.79911520934047e+002°)
2.88403150312660e+000	(-3.02535405480921e+000dB,1.79909459983382e+002°)
2.95120922666638e+000	(-3.02535337467113e+000dB,1.79907351026405e+002°)
3.01995172040201e+000	(-3.02535266247918e+000dB,1.79905192944860e+002°)
3.09029543251359e+000	(-3.02535191672273e+000dB,1.79902984594443e+002°)
3.16227766016837e+000	(-3.02535113581993e+000dB,1.79900724804192e+002°)
3.23593656929628e+000	(-3.02535031811440e+000dB,1.79898412375866e+002°)
3.31131121482591e+000	(-3.02534946187168e+000dB,1.79896046083310e+002°)
3.38844156139202e+000	(-3.02534856527558e+000dB,1.79893624671804e+002°)
3.46736850452531e+000	(-3.02534762642431e+000dB,1.79891146857396e+002°)
3.54813389233575e+000	(-3.02534664332647e+000dB,1.79888611326224e+002°)
3.63078054770101e+000	(-3.02534561389678e+000dB,1.79886016733818e+002°)
3.71535229097172e+000	(-3.02534453595170e+000dB,1.79883361704382e+002°)
3.80189396320560e+000	(-3.02534340720478e+000dB,1.79880644830072e+002°)
3.89045144994280e+000	(-3.02534222526184e+000dB,1.79877864670243e+002°)
3.98107170553496e+000	(-3.02534098761581e+000dB,1.79875019750686e+002°)
4.07380277804112e+000	(-3.02533969164153e+000dB,1.79872108562848e+002°)
4.16869383470335e+000	(-3.02533833459009e+000dB,1.79869129563028e+002°)
4.26579518801592e+000	(-3.02533691358303e+000dB,1.79866081171560e+002°)
4.36515832240165e+000	(-3.02533542560623e+000dB,1.79862961771974e+002°)
4.46683592150962e+000	(-3.02533386750353e+000dB,1.79859769710139e+002°)
4.57088189614874e+000	(-3.02533223597004e+000dB,1.79856503293383e+002°)
4.67735141287197e+000	(-3.02533052754510e+000dB,1.79853160789596e+002°)
4.78630092322637e+000	(-3.02532873860494e+000dB,1.79849740426312e+002°)
4.89778819368445e+000	(-3.02532686535507e+000dB,1.79846240389766e+002°)
5.01187233627271e+000	(-3.02532490382210e+000dB,1.79842658823931e+002°)
5.12861383991364e+000	(-3.02532284984544e+000dB,1.79838993829533e+002°)
5.24807460249771e+000	(-3.02532069906840e+000dB,1.79835243463044e+002°)
5.37031796370252e+000	(-3.02531844692896e+000dB,1.79831405735651e+002°)
5.49540873857623e+000	(-3.02531608865014e+000dB,1.79827478612194e+002°)
5.62341325190348e+000	(-3.02531361922979e+000dB,1.79823460010093e+002°)
5.75439937337156e+000	(-3.02531103343005e+000dB,1.79819347798236e+002°)
5.88843655355588e+000	(-3.02530832576619e+000dB,1.79815139795852e+002°)
6.02559586074356e+000	(-3.02530549049504e+000dB,1.79810833771348e+002°)
6.16595001861481e+000	(-3.02530252160273e+000dB,1.79806427441128e+002°)
6.30957344480192e+000	(-3.02529941279201e+000dB,1.79801918468376e+002°)
6.45654229034654e+000	(-3.02529615746881e+000dB,1.79797304461817e+002°)
6.60693448007594e+000	(-3.02529274872836e+000dB,1.79792582974447e+002°)
6.76082975391980e+000	(-3.02528917934044e+000dB,1.79787751502230e+002°)
6.91830970918935e+000	(-3.02528544173414e+000dB,1.79782807482770e+002°)
7.07945784384136e+000	(-3.02528152798172e+000dB,1.79777748293945e+002°)
7.24435960074988e+000	(-3.02527742978184e+000dB,1.79772571252521e+002°)
7.41310241300916e+000	(-3.02527313844196e+000dB,1.79767273612716e+002°)
7.58577575029182e+000	(-3.02526864485989e+000dB,1.79761852564747e+002°)
7.76247116628690e+000	(-3.02526393950447e+000dB,1.79756305233333e+002°)
7.94328234724279e+000	(-3.02525901239541e+000dB,1.79750628676169e+002°)
8.12830516164097e+000	(-3.02525385308204e+000dB,1.79744819882353e+002°)
8.31763771102669e+000	(-3.02524845062123e+000dB,1.79738875770796e+002°)
8.51138038202374e+000	(-3.02524279355413e+000dB,1.79732793188572e+002°)
8.70963589956078e+000	(-3.02523686988188e+000dB,1.79726568909247e+002°)
8.91250938133743e+000	(-3.02523066704018e+000dB,1.79720199631158e+002°)
9.12010839355907e+000	(-3.02522417187263e+000dB,1.79713681975657e+002°)
9.33254300796988e+000	(-3.02521737060280e+000dB,1.79707012485314e+002°)
9.54992586021433e+000	(-3.02521024880510e+000dB,1.79700187622070e+002°)
9.77237220955808e+000	(-3.02520279137409e+000dB,1.79693203765359e+002°)
9.99999999999997e+000	(-3.02519498249250e+000dB,1.79686057210176e+002°)
1.02329299228075e+001	(-3.02518680559769e+000dB,1.79678744165101e+002°)
1.04712854805090e+001	(-3.02517824334650e+000dB,1.79671260750283e+002°)
1.07151930523760e+001	(-3.02516927757850e+000dB,1.79663602995365e+002°)
1.09647819614318e+001	(-3.02515988927745e+000dB,1.79655766837373e+002°)
1.12201845430196e+001	(-3.02515005853101e+000dB,1.79647748118544e+002°)
1.14815362149688e+001	(-3.02513976448849e+000dB,1.79639542584112e+002°)
1.17489755493953e+001	(-3.02512898531664e+000dB,1.79631145880031e+002°)
1.20226443461741e+001	(-3.02511769815337e+000dB,1.79622553550658e+002°)
1.23026877081238e+001	(-3.02510587905925e+000dB,1.79613761036365e+002°)
1.25892541179416e+001	(-3.02509350296679e+000dB,1.79604763671111e+002°)
1.28824955169313e+001	(-3.02508054362722e+000dB,1.79595556679942e+002°)
1.31825673855640e+001	(-3.02506697355490e+000dB,1.79586135176443e+002°)
1.34896288259165e+001	(-3.02505276396903e+000dB,1.79576494160119e+002°)
1.38038426460288e+001	(-3.02503788473260e+000dB,1.79566628513726e+002°)
1.41253754462275e+001	(-3.02502230428851e+000dB,1.79556533000525e+002°)
1.44543977074592e+001	(-3.02500598959267e+000dB,1.79546202261483e+002°)
1.47910838816820e+001	(-3.02498890604396e+000dB,1.79535630812399e+002°)
1.51356124843620e+001	(-3.02497101741083e+000dB,1.79524813040965e+002°)
1.54881661891248e+001	(-3.02495228575455e+000dB,1.79513743203754e+002°)
1.58489319246111e+001	(-3.02493267134870e+000dB,1.79502415423141e+002°)
1.62181009735892e+001	(-3.02491213259504e+000dB,1.79490823684145e+002°)
1.65958690743755e+001	(-3.02489062593531e+000dB,1.79478961831200e+002°)
1.69824365246174e+001	(-3.02486810575885e+000dB,1.79466823564842e+002°)
1.73780082874937e+001	(-3.02484452430597e+000dB,1.79454402438325e+002°)
1.77827941003892e+001	(-3.02481983156669e+000dB,1.79441691854148e+002°)
1.81970085860998e+001	(-3.02479397517477e+000dB,1.79428685060501e+002°)
1.86208713666286e+001	(-3.02476690029671e+000dB,1.79415375147627e+002°)
1.90546071796324e+001	(-3.02473854951552e+000dB,1.79401755044095e+002°)
1.94984459975804e+001	(-3.02470886270905e+000dB,1.79387817512980e+002°)
1.99526231496887e+001	(-3.02467777692259e+000dB,1.79373555147953e+002°)
2.04173794466952e+001	(-3.02464522623546e+000dB,1.79358960369278e+002°)
2.08929613085403e+001	(-3.02461114162130e+000dB,1.79344025419705e+002°)
2.13796208950222e+001	(-3.02457545080183e+000dB,1.79328742360270e+002°)
2.18776162394954e+001	(-3.02453807809370e+000dB,1.79313103065985e+002°)
2.23872113856833e+001	(-3.02449894424813e+000dB,1.79297099221432e+002°)
2.29086765276776e+001	(-3.02445796628305e+000dB,1.79280722316237e+002°)
2.34422881531991e+001	(-3.02441505730725e+000dB,1.79263963640445e+002°)
2.39883291901948e+001	(-3.02437012633638e+000dB,1.79246814279766e+002°)
2.45470891568502e+001	(-3.02432307810015e+000dB,1.79229265110720e+002°)
2.51188643150957e+001	(-3.02427381284061e+000dB,1.79211306795649e+002°)
2.57039578276885e+001	(-3.02422222610085e+000dB,1.79192929777610e+002°)
2.63026799189537e+001	(-3.02416820850374e+000dB,1.79174124275137e+002°)
2.69153480392690e+001	(-3.02411164552038e+000dB,1.79154880276881e+002°)
2.75422870333815e+001	(-3.02405241722757e+000dB,1.79135187536102e+002°)
2.81838293126444e+001	(-3.02399039805384e+000dB,1.79115035565030e+002°)
2.88403150312659e+001	(-3.02392545651370e+000dB,1.79094413629089e+002°)
2.95120922666637e+001	(-3.02385745492925e+000dB,1.79073310740959e+002°)
3.01995172040200e+001	(-3.02378624913873e+000dB,1.79051715654500e+002°)
3.09029543251358e+001	(-3.02371168819147e+000dB,1.79029616858517e+002°)
3.16227766016837e+001	(-3.02363361402837e+000dB,1.79007002570362e+002°)
3.23593656929627e+001	(-3.02355186114750e+000dB,1.78983860729376e+002°)
3.31131121482590e+001	(-3.02346625625391e+000dB,1.78960178990155e+002°)
3.38844156139201e+001	(-3.02337661789300e+000dB,1.78935944715645e+002°)
3.46736850452530e+001	(-3.02328275606670e+000dB,1.78911144970061e+002°)
3.54813389233574e+001	(-3.02318447183166e+000dB,1.78885766511608e+002°)
3.63078054770100e+001	(-3.02308155687851e+000dB,1.78859795785020e+002°)
3.71535229097171e+001	(-3.02297379309141e+000dB,1.78833218913901e+002°)
3.80189396320559e+001	(-3.02286095208697e+000dB,1.78806021692855e+002°)
3.89045144994279e+001	(-3.02274279473144e+000dB,1.78778189579411e+002°)
3.98107170553495e+001	(-3.02261907063542e+000dB,1.78749707685725e+002°)
4.07380277804111e+001	(-3.02248951762470e+000dB,1.78720560770068e+002°)
4.16869383470333e+001	(-3.02235386118642e+000dB,1.78690733228065e+002°)
4.26579518801591e+001	(-3.02221181388925e+000dB,1.78660209083708e+002°)
4.36515832240164e+001	(-3.02206307477634e+000dB,1.78628971980113e+002°)
4.46683592150961e+001	(-3.02190732872995e+000dB,1.78597005170020e+002°)
4.57088189614873e+001	(-3.02174424580623e+000dB,1.78564291506034e+002°)
4.67735141287196e+001	(-3.02157348053892e+000dB,1.78530813430579e+002°)
4.78630092322636e+001	(-3.02139467121045e+000dB,1.78496552965574e+002°)
4.89778819368444e+001	(-3.02120743908895e+000dB,1.78461491701814e+002°)
5.01187233627270e+001	(-3.02101138762959e+000dB,1.78425610788040e+002°)
5.12861383991362e+001	(-3.02080610163858e+000dB,1.78388890919692e+002°)
5.24807460249770e+001	(-3.02059114639811e+000dB,1.78351312327334e+002°)
5.37031796370250e+001	(-3.02036606675042e+000dB,1.78312854764734e+002°)
5.49540873857622e+001	(-3.02013038613917e+000dB,1.78273497496590e+002°)
5.62341325190346e+001	(-3.01988360560596e+000dB,1.78233219285884e+002°)
5.75439937337154e+001	(-3.01962520274021e+000dB,1.78191998380854e+002°)
5.88843655355586e+001	(-3.01935463057995e+000dB,1.78149812501561e+002°)
6.02559586074355e+001	(-3.01907131646147e+000dB,1.78106638826049e+002°)
6.16595001861479e+001	(-3.01877466081545e+000dB,1.78062453976060e+002°)
6.30957344480190e+001	(-3.01846403590695e+000dB,1.78017234002308e+002°)
6.45654229034652e+001	(-3.01813878451696e+000dB,1.77970954369277e+002°)
6.60693448007593e+001	(-3.01779821856256e+000dB,1.77923589939524e+002°)
6.76082975391978e+001	(-3.01744161765306e+000dB,1.77875114957484e+002°)
6.91830970918933e+001	(-3.01706822757911e+000dB,1.77825503032723e+002°)
7.07945784384134e+001	(-3.01667725873180e+000dB,1.77774727122646e+002°)
7.24435960074986e+001	(-3.01626788444847e+000dB,1.77722759514616e+002°)
7.41310241300914e+001	(-3.01583923928198e+000dB,1.77669571807461e+002°)
7.58577575029180e+001	(-3.01539041718992e+000dB,1.77615134892347e+002°)
7.76247116628688e+001	(-3.01492046964015e+000dB,1.77559418932979e+002°)
7.94328234724277e+001	(-3.01442840362892e+000dB,1.77502393345106e+002°)
8.12830516164095e+001	(-3.01391317960763e+000dB,1.77444026775285e+002°)
8.31763771102667e+001	(-3.01337370931404e+000dB,1.77384287078886e+002°)
8.51138038202372e+001	(-3.01280885350378e+000dB,1.77323141297279e+002°)
8.70963589956076e+001	(-3.01221741957760e+000dB,1.77260555634180e+002°)
8.91250938133741e+001	(-3.01159815909980e+000dB,1.77196495431109e+002°)
9.12010839355905e+001	(-3.01094976520289e+000dB,1.77130925141900e+002°)
9.33254300796986e+001	(-3.01027086987363e+000dB,1.77063808306245e+002°)
9.54992586021431e+001	(-3.00956004111493e+000dB,1.76995107522188e+002°)
9.77237220955805e+001	(-3.00881577997854e+000dB,1.76924784417534e+002°)
9.99999999999995e+001	(-3.00803651746248e+000dB,1.76852799620114e+002°)
1.02329299228075e+002	(-3.00722061126762e+000dB,1.76779112726832e+002°)
1.04712854805089e+002	(-3.00636634240711e+000dB,1.76703682271442e+002°)
1.07151930523760e+002	(-3.00547191166243e+000dB,1.76626465690978e+002°)
1.09647819614318e+002	(-3.00453543587939e+000dB,1.76547419290755e+002°)
1.12201845430196e+002	(-3.00355494409730e+000dB,1.76466498207882e+002°)
1.14815362149688e+002	(-3.00252837350424e+000dB,1.76383656373175e+002°)
1.17489755493952e+002	(-3.00145356521101e+000dB,1.76298846471397e+002°)
1.20226443461741e+002	(-3.00032825983629e+000dB,1.76212019899729e+002°)
1.23026877081237e+002	(-2.99915009289516e+000dB,1.76123126724347e+002°)
1.25892541179416e+002	(-2.99791658998274e+000dB,1.76032115635022e+002°)
1.28824955169313e+002	(-2.99662516174470e+000dB,1.75938933897606e+002°)
1.31825673855640e+002	(-2.99527309862616e+000dB,1.75843527304280e+002°)
1.34896288259165e+002	(-2.99385756538970e+000dB,1.75745840121434e+002°)
1.38038426460288e+002	(-2.99237559539390e+000dB,1.75645815035025e+002°)
1.41253754462275e+002	(-2.99082408462252e+000dB,1.75543393093269e+002°)
1.44543977074592e+002	(-2.98919978545513e+000dB,1.75438513646485e+002°)
1.47910838816820e+002	(-2.98749930016916e+000dB,1.75331114283934e+002°)
1.51356124843620e+002	(-2.98571907416335e+000dB,1.75221130767435e+002°)
1.54881661891247e+002	(-2.98385538889252e+000dB,1.75108496961582e+002°)
1.58489319246110e+002	(-2.98190435450311e+000dB,1.74993144760316e+002°)
1.62181009735892e+002	(-2.97986190215921e+000dB,1.74875004009637e+002°)
1.65958690743755e+002	(-2.97772377604817e+000dB,1.74754002426194e+002°)
1.69824365246173e+002	(-2.97548552505545e+000dB,1.74630065511482e+002°)
1.73780082874936e+002	(-2.97314249409782e+000dB,1.74503116461354e+002°)
1.77827941003891e+002	(-2.97068981510437e+000dB,1.74373076070547e+002°)
1.81970085860997e+002	(-2.96812239763478e+000dB,1.74239862631866e+002°)
1.86208713666286e+002	(-2.96543491912459e+000dB,1.74103391829685e+002°)
1.90546071796323e+002	(-2.96262181474737e+000dB,1.73963576627369e+002°)
1.94984459975803e+002	(-2.95967726688422e+000dB,1.73820327148197e+002°)
1.99526231496887e+002	(-2.95659519419136e+000dB,1.73673550549345e+002°)
2.04173794466952e+002	(-2.95336924025746e+000dB,1.73523150888439e+002°)
2.08929613085403e+002	(-2.94999276184289e+000dB,1.73369028982173e+002°)
2.13796208950222e+002	(-2.94645881669436e+000dB,1.73211082256409e+002°)
2.18776162394954e+002	(-2.94276015092944e+000dB,1.73049204587186e+002°)
2.23872113856832e+002	(-2.93888918598695e+000dB,1.72883286131969e+002°)
2.29086765276776e+002	(-2.93483800514101e+000dB,1.72713213150443e+002°)
2.34422881531991e+002	(-2.93059833957857e+000dB,1.72538867814113e+002°)
2.39883291901947e+002	(-2.92616155404267e+000dB,1.72360128003875e+002°)
2.45470891568501e+002	(-2.92151863204674e+000dB,1.72176867094700e+002°)
2.51188643150956e+002	(-2.91666016066817e+000dB,1.71988953726486e+002°)
2.57039578276885e+002	(-2.91157631493381e+000dB,1.71796251560039e+002°)
2.63026799189536e+002	(-2.90625684181441e+000dB,1.71598619017111e+002°)
2.69153480392690e+002	(-2.90069104385012e+000dB,1.71395909003278e+002°)
2.75422870333815e+002	(-2.89486776243567e+000dB,1.71187968612393e+002°)
2.81838293126443e+002	(-2.88877536080078e+000dB,1.70974638811222e+002°)
2.88403150312659e+002	(-2.88240170672940e+000dB,1.70755754102752e+002°)
2.95120922666637e+002	(-2.87573415507123e+000dB,1.70531142166572e+002°)
3.01995172040200e+002	(-2.86875953010945e+000dB,1.70300623474550e+002°)
3.09029543251357e+002	(-2.86146410786158e+000dB,1.70064010879931e+002°)
3.16227766016836e+002	(-2.85383359840446e+000dB,1.69821109177798e+002°)
3.23593656929626e+002	(-2.84585312833130e+000dB,1.69571714634678e+002°)
3.31131121482589e+002	(-2.83750722346771e+000dB,1.69315614484898e+002°)
3.38844156139200e+002	(-2.82877979199559e+000dB,1.69052586391099e+002°)
3.46736850452529e+002	(-2.81965410815909e+000dB,1.68782397866102e+002°)
3.54813389233573e+002	(-2.81011279675592e+000dB,1.68504805653083e+002°)
3.63078054770099e+002	(-2.80013781865031e+000dB,1.68219555060796e+002°)
3.71535229097170e+002	(-2.78971045758260e+000dB,1.67926379250267e+002°)
3.80189396320558e+002	(-2.77881130859413e+000dB,1.67624998469152e+002°)
3.89045144994278e+002	(-2.76742026843650e+000dB,1.67315119229602e+002°)
3.98107170553494e+002	(-2.75551652839252e+000dB,1.66996433425150e+002°)
4.07380277804110e+002	(-2.74307857000252e+000dB,1.66668617381821e+002°)
4.16869383470332e+002	(-2.73008416426620e+000dB,1.66331330838227e+002°)
4.26579518801589e+002	(-2.71651037497818e+000dB,1.65984215849058e+002°)
4.36515832240163e+002	(-2.70233356695619e+000dB,1.65626895605936e+002°)
4.46683592150960e+002	(-2.68752942003710e+000dB,1.65258973169141e+002°)
4.57088189614872e+002	(-2.67207294984897e+000dB,1.64880030103270e+002°)
4.67735141287195e+002	(-2.65593853652082e+000dB,1.64489625009396e+002°)
4.78630092322635e+002	(-2.63909996266755e+000dB,1.64087291945795e+002°)
4.89778819368443e+002	(-2.62153046219027e+000dB,1.63672538728794e+002°)
5.01187233627268e+002	(-2.60320278166414e+000dB,1.63244845104829e+002°)
5.12861383991361e+002	(-2.58408925635353e+000dB,1.62803660784258e+002°)
5.24807460249769e+002	(-2.56416190320080e+000dB,1.62348403327078e+002°)
5.37031796370249e+002	(-2.54339253348700e+000dB,1.61878455870239e+002°)
5.49540873857620e+002	(-2.52175288826760e+000dB,1.61393164685975e+002°)
5.62341325190345e+002	(-2.49921480014881e+000dB,1.60891836560313e+002°)
5.75439937337152e+002	(-2.47575038550163e+000dB,1.60373735980932e+002°)
