Freq.	V(vout)
1.00000000000000e+000	(-1.57608559705461e-004dB,-2.54591888979221e-003°)
1.02329299228075e+000	(-1.57584348907097e-004dB,-2.60522096612510e-003°)
1.04712854805090e+000	(-1.57558997100667e-004dB,-2.66590436578548e-003°)
1.07151930523761e+000	(-1.57532450487304e-004dB,-2.72800126396385e-003°)
1.09647819614318e+000	(-1.57504652776275e-004dB,-2.79154458531048e-003°)
1.12201845430196e+000	(-1.57475544998863e-004dB,-2.85656802139176e-003°)
1.14815362149688e+000	(-1.57445065417718e-004dB,-2.92310604855468e-003°)
1.17489755493953e+000	(-1.57413149373525e-004dB,-2.99119394620672e-003°)
1.20226443461741e+000	(-1.57379729174107e-004dB,-3.06086781552175e-003°)
1.23026877081238e+000	(-1.57344733931451e-004dB,-3.13216459858209e-003°)
1.25892541179417e+000	(-1.57308089410301e-004dB,-3.20512209796536e-003°)
1.28824955169313e+000	(-1.57269717889300e-004dB,-3.27977899678878e-003°)
1.31825673855641e+000	(-1.57229537970045e-004dB,-3.35617487921985e-003°)
1.34896288259165e+000	(-1.57187464429542e-004dB,-3.43435025146475e-003°)
1.38038426460288e+000	(-1.57143408027340e-004dB,-3.51434656324563e-003°)
1.41253754462275e+000	(-1.57097275306877e-004dB,-3.59620622977811e-003°)
1.44543977074593e+000	(-1.57048968424788e-004dB,-3.67997265426206e-003°)
1.47910838816821e+000	(-1.56998384901139e-004dB,-3.76569025089331e-003°)
1.51356124843621e+000	(-1.56945417447782e-004dB,-3.85340446841474e-003°)
1.54881661891248e+000	(-1.56889953721472e-004dB,-3.94316181421397e-003°)
1.58489319246111e+000	(-1.56831876071218e-004dB,-4.03500987898291e-003°)
1.62181009735893e+000	(-1.56771061300088e-004dB,-4.12899736195130e-003°)
1.65958690743756e+000	(-1.56707380417368e-004dB,-4.22517409670928e-003°)
1.69824365246174e+000	(-1.56640698349267e-004dB,-4.32359107763044e-003°)
1.73780082874937e+000	(-1.56570873650573e-004dB,-4.42430048690996e-003°)
1.77827941003892e+000	(-1.56497758217281e-004dB,-4.52735572223496e-003°)
1.81970085860998e+000	(-1.56421196951966e-004dB,-4.63281142509494e-003°)
1.86208713666287e+000	(-1.56341027469658e-004dB,-4.74072350975799e-003°)
1.90546071796325e+000	(-1.56257079716929e-004dB,-4.85114919291575e-003°)
1.94984459975804e+000	(-1.56169175625691e-004dB,-4.96414702402314e-003°)
1.99526231496888e+000	(-1.56077128732283e-004dB,-5.07977691634304e-003°)
2.04173794466953e+000	(-1.55980743811986e-004dB,-5.19810017871487e-003°)
2.08929613085404e+000	(-1.55879816410352e-004dB,-5.31917954806288e-003°)
2.13796208950223e+000	(-1.55774132440108e-004dB,-5.44307922266126e-003°)
2.18776162394955e+000	(-1.55663467742386e-004dB,-5.56986489617581e-003°)
2.23872113856834e+000	(-1.55547587573686e-004dB,-5.69960379249700e-003°)
2.29086765276777e+000	(-1.55426246137212e-004dB,-5.83236470138458e-003°)
2.34422881531992e+000	(-1.55299186051520e-004dB,-5.96821801494491e-003°)
2.39883291901949e+000	(-1.55166137811449e-004dB,-6.10723576495323e-003°)
2.45470891568503e+000	(-1.55026819197947e-004dB,-6.24949166105238e-003°)
2.51188643150958e+000	(-1.54880934695608e-004dB,-6.39506112983389e-003°)
2.57039578276886e+000	(-1.54728174868747e-004dB,-6.54402135483505e-003°)
2.63026799189538e+000	(-1.54568215690217e-004dB,-6.69645131746563e-003°)
2.69153480392691e+000	(-1.54400717863480e-004dB,-6.85243183888793e-003°)
2.75422870333816e+000	(-1.54225326108031e-004dB,-7.01204562287350e-003°)
2.81838293126445e+000	(-1.54041668384072e-004dB,-7.17537729965731e-003°)
2.88403150312660e+000	(-1.53849355135503e-004dB,-7.34251347081407e-003°)
2.95120922666638e+000	(-1.53647978438415e-004dB,-7.51354275518011e-003°)
3.01995172040201e+000	(-1.53437111146685e-004dB,-7.68855583584683e-003°)
3.09029543251359e+000	(-1.53216305979712e-004dB,-7.86764550824357e-003°)
3.16227766016837e+000	(-1.52985094580264e-004dB,-8.05090672934809e-003°)
3.23593656929628e+000	(-1.52742986523134e-004dB,-8.23843666803902e-003°)
3.31131121482591e+000	(-1.52489468246662e-004dB,-8.43033475662124e-003°)
3.38844156139202e+000	(-1.52224002017998e-004dB,-8.62670274355601e-003°)
3.46736850452531e+000	(-1.51946024743115e-004dB,-8.82764474741282e-003°)
3.54813389233575e+000	(-1.51654946790318e-004dB,-9.03326731208612e-003°)
3.63078054770101e+000	(-1.51350150757829e-004dB,-9.24367946329308e-003°)
3.71535229097172e+000	(-1.51030990108285e-004dB,-9.45899276638802e-003°)
3.80189396320560e+000	(-1.50696787876537e-004dB,-9.67932138552982e-003°)
3.89045144994280e+000	(-1.50346835160464e-004dB,-9.90478214421984e-003°)
3.98107170553496e+000	(-1.49980389666765e-004dB,-1.01354945872559e-002°)
4.07380277804112e+000	(-1.49596674115952e-004dB,-1.03715810441298e-002°)
4.16869383470335e+000	(-1.49194874583699e-004dB,-1.06131666938975e-002°)
4.26579518801592e+000	(-1.48774138807483e-004dB,-1.08603796315684e-002°)
4.36515832240165e+000	(-1.48333574343748e-004dB,-1.11133509360357e-002°)
4.46683592150962e+000	(-1.47872246700963e-004dB,-1.13722147395933e-002°)
4.57088189614874e+000	(-1.47389177325142e-004dB,-1.16371082990691e-002°)
4.67735141287197e+000	(-1.46883341561258e-004dB,-1.19081720686198e-002°)
4.78630092322637e+000	(-1.46353666462290e-004dB,-1.21855497742242e-002°)
4.89778819368445e+000	(-1.45799028509561e-004dB,-1.24693884899034e-002°)
5.01187233627271e+000	(-1.45218251243391e-004dB,-1.27598387157298e-002°)
5.12861383991364e+000	(-1.44610102751997e-004dB,-1.30570544576442e-002°)
5.24807460249771e+000	(-1.43973293051431e-004dB,-1.33611933091382e-002°)
5.37031796370252e+000	(-1.43306471386441e-004dB,-1.36724165348420e-002°)
5.49540873857623e+000	(-1.42608223334622e-004dB,-1.39908891560562e-002°)
5.62341325190348e+000	(-1.41877067808342e-004dB,-1.43167800382813e-002°)
5.75439937337156e+000	(-1.41111453920709e-004dB,-1.46502619807856e-002°)
5.88843655355588e+000	(-1.40309757685684e-004dB,-1.49915118082617e-002°)
6.02559586074356e+000	(-1.39470278603432e-004dB,-1.53407104646226e-002°)
6.16595001861481e+000	(-1.38591236002687e-004dB,-1.56980431089780e-002°)
6.30957344480192e+000	(-1.37670765309820e-004dB,-1.60636992138562e-002°)
6.45654229034654e+000	(-1.36706914066237e-004dB,-1.64378726657125e-002°)
6.60693448007594e+000	(-1.35697637801136e-004dB,-1.68207618677802e-002°)
6.76082975391980e+000	(-1.34640795697905e-004dB,-1.72125698453225e-002°)
6.91830970918935e+000	(-1.33534146015597e-004dB,-1.76135043533379e-002°)
7.07945784384136e+000	(-1.32375341400486e-004dB,-1.80237779867784e-002°)
7.24435960074988e+000	(-1.31161923848549e-004dB,-1.84436082933366e-002°)
7.41310241300916e+000	(-1.29891319508851e-004dB,-1.88732178888661e-002°)
7.58577575029182e+000	(-1.28560833250695e-004dB,-1.93128345754925e-002°)
7.76247116628690e+000	(-1.27167642878800e-004dB,-1.97626914624783e-002°)
7.94328234724279e+000	(-1.25708793242443e-004dB,-2.02230270899142e-002°)
8.12830516164097e+000	(-1.24181189892345e-004dB,-2.06940855552888e-002°)
8.31763771102669e+000	(-1.22581592530256e-004dB,-2.11761166430117e-002°)
8.51138038202374e+000	(-1.20906608167352e-004dB,-2.16693759569720e-002°)
8.70963589956078e+000	(-1.19152683883425e-004dB,-2.21741250561668e-002°)
8.91250938133743e+000	(-1.17316099327682e-004dB,-2.26906315935213e-002°)
9.12010839355907e+000	(-1.15392958807809e-004dB,-2.32191694579301e-002°)
9.33254300796988e+000	(-1.13379183029035e-004dB,-2.37600189196243e-002°)
9.54992586021433e+000	(-1.11270500432091e-004dB,-2.43134667789261e-002°)
9.77237220955808e+000	(-1.09062438157059e-004dB,-2.48798065184831e-002°)
9.99999999999997e+000	(-1.06750312537663e-004dB,-2.54593384590564e-002°)
1.02329299228075e+001	(-1.04329219152998e-004dB,-2.60523699189388e-002°)
1.04712854805090e+001	(-1.01794022453108e-004dB,-2.66592153771109e-002°)
1.07151930523760e+001	(-9.91393448465449e-005dB,-2.72801966401939e-002°)
1.09647819614318e+001	(-9.63595553020103e-005dB,-2.79156430133163e-002°)
1.12201845430196e+001	(-9.34487573869206e-005dB,-2.85658914749602e-002°)
1.14815362149688e+001	(-9.04007767805335e-005dB,-2.92312868559125e-002°)
1.17489755493953e+001	(-8.72091481700254e-005dB,-2.99121820223730e-002°)
1.20226443461741e+001	(-8.38671015189286e-005dB,-3.06089380633686e-002°)
1.23026877081238e+001	(-8.03675477339773e-005dB,-3.13219244825359e-002°)
1.25892541179416e+001	(-7.67030635992304e-005dB,-3.20515193943865e-002°)
1.28824955169313e+001	(-7.28658760392025e-005dB,-3.27981097251754e-002°)
1.31825673855640e+001	(-6.88478456512355e-005dB,-3.35620914184657e-002°)
1.34896288259165e+001	(-6.46404493991233e-005dB,-3.43438696454849e-002°)
1.38038426460288e+001	(-6.02347625519097e-005dB,-3.51438590204355e-002°)
1.41253754462275e+001	(-5.56214397762728e-005dB,-3.59624838208239e-002°)
1.44543977074592e+001	(-5.07906952552291e-005dB,-3.68001782129483e-002°)
1.47910838816820e+001	(-4.57322819720505e-005dB,-3.76573864826920e-002°)
1.51356124843620e+001	(-4.04354699646328e-005dB,-3.85345632716917e-002°)
1.54881661891248e+001	(-3.48890235542062e-005dB,-3.94321738190617e-002°)
1.58489319246111e+001	(-2.90811775031028e-005dB,-4.03506942087763e-002°)
1.62181009735892e+001	(-2.29996120842669e-005dB,-4.12906116228587e-002°)
1.65958690743755e+001	(-1.66314269063312e-005dB,-4.22524246004996e-002°)
1.69824365246174e+001	(-9.96311356181369e-006dB,-4.32366433032617e-002°)
1.73780082874937e+001	(-2.98052699337810e-006dB,-4.42437897865107e-002°)
1.77827941003892e+001	(4.33114455099993e-006dB,-4.52743982772170e-002°)
1.81970085860998e+001	(1.19874109459295e-005dB,-4.63290154582761e-002°)
1.86208713666286e+001	(2.00045130428851e-005dB,-4.74082007595232e-002°)
1.90546071796324e+001	(2.83994571928360e-005dB,-4.85125266555766e-002°)
1.94984459975804e+001	(3.71900512732020e-005dB,-4.96425789706928e-002°)
1.99526231496887e+001	(4.63949425006211e-005dB,-5.07989571907895e-002°)
2.04173794466952e+001	(5.60336569995278e-005dB,-5.19822747828184e-002°)
2.08929613085403e+001	(6.61266411939308e-005dB,-5.31931595216552e-002°)
2.13796208950222e+001	(7.66953052363394e-005dB,-5.44322538246912e-002°)
2.18776162394954e+001	(8.77620683830547e-005dB,-5.57002150943205e-002°)
2.23872113856833e+001	(9.93504066165383e-005dB,-5.69977160684934e-002°)
2.29086765276776e+001	(1.11484902425974e-004dB,-5.83254451795513e-002°)
2.34422881531991e+001	(1.24191296961846e-004dB,-5.96841069215472e-002°)
2.39883291901948e+001	(1.37496544681973e-004dB,-6.10744222262118e-002°)
2.45470891568502e+001	(1.51428870515790e-004dB,-6.24971288478560e-002°)
2.51188643150957e+001	(1.66017829797333e-004dB,-6.39529817573462e-002°)
2.57039578276885e+001	(1.81294370924261e-004dB,-6.54427535454281e-002°)
2.63026799189537e+001	(1.97290901095532e-004dB,-6.69672348355926e-002°)
2.69153480392690e+001	(2.14041355017498e-004dB,-6.85272347067635e-002°)
2.75422870333815e+001	(2.31581266981145e-004dB,-7.01235811259862e-002°)
2.81838293126444e+001	(2.49947846221369e-004dB,-7.17571213914137e-002°)
2.88403150312659e+001	(2.69180055906958e-004dB,-7.34287225858328e-002°)
2.95120922666637e+001	(2.89318695820582e-004dB,-7.51392720409707e-002°)
3.01995172040200e+001	(3.10406488967457e-004dB,-7.68896778128735e-002°)
3.09029543251358e+001	(3.32488172222023e-004dB,-7.86808691686289e-002°)
3.16227766016837e+001	(3.55610591303276e-004dB,-8.05137970846996e-002°)
3.23593656929627e+001	(3.79822800187979e-004dB,-8.23894347571781e-002°)
3.31131121482590e+001	(4.05176165238770e-004dB,-8.43087781242542e-002°)
3.38844156139201e+001	(4.31724474235324e-004dB,-8.62728464012029e-002°)
3.46736850452530e+001	(4.59524050554575e-004dB,-8.82826826281944e-002°)
3.54813389233574e+001	(4.88633872711146e-004dB,-9.03393542313041e-002°)
3.63078054770100e+001	(5.19115699580948e-004dB,-9.24439535969799e-002°)
3.71535229097171e+001	(5.51034201511178e-004dB,-9.45975986603836e-002°)
3.80189396320559e+001	(5.84457097604758e-004dB,-9.68014335079071e-002°)
3.89045144994279e+001	(6.19455299486346e-004dB,-9.90566289942976e-002°)
3.98107170553495e+001	(6.56103061897470e-004dB,-1.01364383374662e-001°)
4.07380277804111e+001	(6.94478140331232e-004dB,-1.03725922951861e-001°)
4.16869383470333e+001	(7.34661956121296e-004dB,-1.06142502739618e-001°)
4.26579518801591e+001	(7.76739769390040e-004dB,-1.08615407141762e-001°)
4.36515832240164e+001	(8.20800860073522e-004dB,-1.11145950648038e-001°)
4.46683592150961e+001	(8.66938717529928e-004dB,-1.13735478546986e-001°)
4.57088189614873e+001	(9.15251239097174e-004dB,-1.16385367656202e-001°)
4.67735141287196e+001	(9.65840938038370e-004dB,-1.19097027070606e-001°)
4.78630092322636e+001	(1.01881516128267e-003dB,-1.21871898929096e-001°)
4.89778819368444e+001	(1.07428631744013e-003dB,-1.24711459200108e-001°)
5.01187233627270e+001	(1.13237211563823e-003dB,-1.27617218486665e-001°)
5.12861383991362e+001	(1.19319581557112e-003dB,-1.30590722851315e-001°)
5.24807460249770e+001	(1.25688648939344e-003dB,-1.33633554661698e-001°)
5.37031796370250e+001	(1.32357929600882e-003dB,-1.36747333457090e-001°)
5.49540873857622e+001	(1.39341576824325e-003dB,-1.39933716836750e-001°)
5.62341325190346e+001	(1.46654411370506e-003dB,-1.43194401370446e-001°)
5.75439937337154e+001	(1.54311952971828e-003dB,-1.46531123532038e-001°)
5.88843655355586e+001	(1.62330453325135e-003dB,-1.49945660656549e-001°)
6.02559586074355e+001	(1.70726930642139e-003dB,-1.53439831921581e-001°)
6.16595001861479e+001	(1.79519205826501e-003dB,-1.57015499353664e-001°)
6.30957344480190e+001	(1.88725940373796e-003dB,-1.60674568860362e-001°)
6.45654229034652e+001	(1.98366676045921e-003dB,-1.64418991288834e-001°)
6.60693448007593e+001	(2.08461876443743e-003dB,-1.68250763511642e-001°)
6.76082975391978e+001	(2.19032970526640e-003dB,-1.72171929540726e-001°)
6.91830970918933e+001	(2.30102398202479e-003dB,-1.76184581670228e-001°)
7.07945784384134e+001	(2.41693658071521e-003dB,-1.80290861649251e-001°)
7.24435960074986e+001	(2.53831357431516e-003dB,-1.84492961885272e-001°)
7.41310241300914e+001	(2.66541264645846e-003dB,-1.88793126679439e-001°)
7.58577575029180e+001	(2.79850363997068e-003dB,-1.93193653494429e-001°)
7.76247116628688e+001	(2.93786913135829e-003dB,-1.97696894256198e-001°)
7.94328234724277e+001	(3.08380503247267e-003dB,-2.02305256690571e-001°)
8.12830516164095e+001	(3.23662122074690e-003dB,-2.07021205695864e-001°)
8.31763771102667e+001	(3.39664219929082e-003dB,-2.11847264752650e-001°)
8.51138038202372e+001	(3.56420778820419e-003dB,-2.16786017372067e-001°)
8.70963589956076e+001	(3.73967384880557e-003dB,-2.21840108583751e-001°)
8.91250938133741e+001	(3.92341304206268e-003dB,-2.27012246465006e-001°)
9.12010839355905e+001	(4.11581562313073e-003dB,-2.32305203712357e-001°)
9.33254300796986e+001	(4.31729027354426e-003dB,-2.37721819257272e-001°)
9.54992586021431e+001	(4.52826497292955e-003dB,-2.43264999927300e-001°)
9.77237220955805e+001	(4.74918791210124e-003dB,-2.48937722154523e-001°)
9.99999999999995e+001	(4.98052844961556e-003dB,-2.54743033732909e-001°)
1.02329299228075e+002	(5.22277811364010e-003dB,-2.60684055626357e-001°)
1.04712854805089e+002	(5.47645165166820e-003dB,-2.66763983829321e-001°)
1.07151930523760e+002	(5.74208812993945e-003dB,-2.72986091282183e-001°)
1.09647819614318e+002	(6.02025208540296e-003dB,-2.79353729843032e-001°)
1.12201845430196e+002	(6.31153473234378e-003dB,-2.85870332318594e-001°)
1.14815362149688e+002	(6.61655522658717e-003dB,-2.92539414556107e-001°)
1.17489755493952e+002	(6.93596198992457e-003dB,-2.99364577598985e-001°)
1.20226443461741e+002	(7.27043409769219e-003dB,-3.06349509908485e-001°)
1.23026877081237e+002	(7.62068273256135e-003dB,-3.13497989654324e-001°)
1.25892541179416e+002	(7.98745270765498e-003dB,-3.20813887077045e-001°)
1.28824955169313e+002	(8.37152406257891e-003dB,-3.28301166924912e-001°)
1.31825673855640e+002	(8.77371373552352e-003dB,-3.35963890968924e-001°)
1.34896288259165e+002	(9.19487731548244e-003dB,-3.43806220598821e-001°)
1.38038426460288e+002	(9.63591087828525e-003dB,-3.51832419504055e-001°)
1.41253754462275e+002	(1.00977529105427e-002dB,-3.60046856443043e-001°)
1.44543977074592e+002	(1.05813863258388e-002dB,-3.68454008105147e-001°)
1.47910838816820e+002	(1.10878405775714e-002dB,-3.77058462069089e-001°)
1.51356124843620e+002	(1.16181938732805e-002dB,-3.85864919862563e-001°)
1.54881661891247e+002	(1.21735754953445e-002dB,-3.94878200127659e-001°)
1.58489319246110e+002	(1.27551682332310e-002dB,-4.04103241897018e-001°)
1.62181009735892e+002	(1.33642109328895e-002dB,-4.13545107986112e-001°)
1.65958690743755e+002	(1.40020011689118e-002dB,-4.23208988507262e-001°)
1.69824365246173e+002	(1.46698980456063e-002dB,-4.33100204511186e-001°)
1.73780082874936e+002	(1.53693251332878e-002dB,-4.43224211762724e-001°)
1.77827941003891e+002	(1.61017735464967e-002dB,-4.53586604657195e-001°)
1.81970085860997e+002	(1.68688051711863e-002dB,-4.64193120284612e-001°)
1.86208713666286e+002	(1.76720560482091e-002dB,-4.75049642649586e-001°)
1.90546071796323e+002	(1.85132399210551e-002dB,-4.86162207054713e-001°)
1.94984459975803e+002	(1.93941519557858e-002dB,-4.97537004656280e-001°)
1.99526231496887e+002	(2.03166726419914e-002dB,-5.09180387201512e-001°)
2.04173794466952e+002	(2.12827718837830e-002dB,-5.21098871956988e-001°)
2.08929613085403e+002	(2.22945132903147e-002dB,-5.33299146839061e-001°)
2.13796208950222e+002	(2.33540586760255e-002dB,-5.45788075756900e-001°)
2.18776162394954e+002	(2.44636727810928e-002dB,-5.58572704180586e-001°)
2.23872113856832e+002	(2.56257282233483e-002dB,-5.71660264946795e-001°)
2.29086765276776e+002	(2.68427106934007e-002dB,-5.85058184315518e-001°)
2.34422881531991e+002	(2.81172244054351e-002dB,-5.98774088292720e-001°)
2.39883291901947e+002	(2.94519978167428e-002dB,-6.12815809234070e-001°)
2.45470891568501e+002	(3.08498896298472e-002dB,-6.27191392746663e-001°)
2.51188643150956e+002	(3.23138950918197e-002dB,-6.41909104906507e-001°)
2.57039578276885e+002	(3.38471526061453e-002dB,-6.56977439810752e-001°)
2.63026799189536e+002	(3.54529506735005e-002dB,-6.72405127485122e-001°)
2.69153480392690e+002	(3.71347351785322e-002dB,-6.88201142168415e-001°)
2.75422870333815e+002	(3.88961170409353e-002dB,-7.04374710997767e-001°)
2.81838293126443e+002	(4.07408802498744e-002dB,-7.20935323119552e-001°)
2.88403150312659e+002	(4.26729903022388e-002dB,-7.37892739253168e-001°)
2.95120922666637e+002	(4.46966030661414e-002dB,-7.55257001736702e-001°)
3.01995172040200e+002	(4.68160740924233e-002dB,-7.73038445085684e-001°)
3.09029543251357e+002	(4.90359683983296e-002dB,-7.91247707098482e-001°)
3.16227766016836e+002	(5.13610707488247e-002dB,-8.09895740544274e-001°)
3.23593656929626e+002	(5.37963964626845e-002dB,-8.28993825472636e-001°)
3.31131121482589e+002	(5.63472027720624e-002dB,-8.48553582186349e-001°)
3.38844156139200e+002	(5.90190007659524e-002dB,-8.68586984922544e-001°)
3.46736850452529e+002	(6.18175679500005e-002dB,-8.89106376290474e-001°)
3.54813389233573e+002	(6.47489614569357e-002dB,-9.10124482518444e-001°)
3.63078054770099e+002	(6.78195319440788e-002dB,-9.31654429566347e-001°)
3.71535229097170e+002	(7.10359382170041e-002dB,-9.53709760164074e-001°)
3.80189396320558e+002	(7.44051626203080e-002dB,-9.76304451842715e-001°)
3.89045144994278e+002	(7.79345272398140e-002dB,-9.99452936028213e-001°)
3.98107170553494e+002	(8.16317109627693e-002dB,-1.02317011827554e+000°)
4.07380277804110e+002	(8.55047674461984e-002dB,-1.04747139972579e+000°)
4.16869383470332e+002	(8.95621440465172e-002dB,-1.07237269987638e+000°)
4.26579518801589e+002	(9.38127017673922e-002dB,-1.09789048076175e+000°)
4.36515832240163e+002	(9.82657362864010e-002dB,-1.12404177265075e+000°)
4.46683592150960e+002	(1.02931000125554e-001dB,-1.15084420137437e+000°)
4.57088189614872e+002	(1.07818726035031e-001dB,-1.17831601740926e+000°)
4.67735141287195e+002	(1.12939651664307e-001dB,-1.20647612685154e+000°)
4.78630092322635e+002	(1.18305045600505e-001dB,-1.23534412442794e+000°)
4.89778819368443e+002	(1.23926734859024e-001dB,-1.26494032870433e+000°)
5.01187233627268e+002	(1.29817133918128e-001dB,-1.29528581966515e+000°)
5.12861383991361e+002	(1.35989275395717e-001dB,-1.32640247885394e+000°)
5.24807460249769e+002	(1.42456842473915e-001dB,-1.35831303228068e+000°)
5.37031796370249e+002	(1.49234203184993e-001dB,-1.39104109632266e+000°)
5.49540873857620e+002	(1.56336446680996e-001dB,-1.42461122686405e+000°)
