Freq.	V(vout)
1.00000000000000e+000	(-3.02536718502067e+000dB,1.79973519437815e+002°)
1.02329299228075e+000	(-3.02536712369088e+000dB,1.79972902626048e+002°)
1.04712854805090e+000	(-3.02536705947071e+000dB,1.79972271446872e+002°)
1.07151930523761e+000	(-3.02536699222395e+000dB,1.79971625565626e+002°)
1.09647819614318e+000	(-3.02536692180794e+000dB,1.79970964639854e+002°)
1.12201845430196e+000	(-3.02536684807332e+000dB,1.79970288319123e+002°)
1.14815362149688e+000	(-3.02536677086370e+000dB,1.79969596244835e+002°)
1.17489755493953e+000	(-3.02536669001531e+000dB,1.79968888050042e+002°)
1.20226443461741e+000	(-3.02536660535665e+000dB,1.79968163359248e+002°)
1.23026877081238e+000	(-3.02536651670815e+000dB,1.79967421788209e+002°)
1.25892541179417e+000	(-3.02536642388177e+000dB,1.79966662943733e+002°)
1.28824955169313e+000	(-3.02536632668062e+000dB,1.79965886423466e+002°)
1.31825673855641e+000	(-3.02536622489852e+000dB,1.79965091815685e+002°)
1.34896288259165e+000	(-3.02536611831959e+000dB,1.79964278699075e+002°)
1.38038426460288e+000	(-3.02536600671775e+000dB,1.79963446642507e+002°)
1.41253754462275e+000	(-3.02536588985627e+000dB,1.79962595204811e+002°)
1.44543977074593e+000	(-3.02536576748728e+000dB,1.79961723934538e+002°)
1.47910838816821e+000	(-3.02536563935122e+000dB,1.79960832369726e+002°)
1.51356124843621e+000	(-3.02536550517630e+000dB,1.79959920037650e+002°)
1.54881661891248e+000	(-3.02536536467792e+000dB,1.79958986454576e+002°)
1.58489319246111e+000	(-3.02536521755804e+000dB,1.79958031125499e+002°)
1.62181009735893e+000	(-3.02536506350463e+000dB,1.79957053543887e+002°)
1.65958690743756e+000	(-3.02536490219090e+000dB,1.79956053191407e+002°)
1.69824365246174e+000	(-3.02536473327469e+000dB,1.79955029537651e+002°)
1.73780082874937e+000	(-3.02536455639772e+000dB,1.79953982039860e+002°)
1.77827941003892e+000	(-3.02536437118479e+000dB,1.79952910142627e+002°)
1.81970085860998e+000	(-3.02536417724305e+000dB,1.79951813277611e+002°)
1.86208713666287e+000	(-3.02536397416112e+000dB,1.79950690863232e+002°)
1.90546071796325e+000	(-3.02536376150824e+000dB,1.79949542304362e+002°)
1.94984459975804e+000	(-3.02536353883334e+000dB,1.79948366992009e+002°)
1.99526231496888e+000	(-3.02536330566411e+000dB,1.79947164302998e+002°)
2.04173794466953e+000	(-3.02536306150595e+000dB,1.79945933599635e+002°)
2.08929613085404e+000	(-3.02536280584098e+000dB,1.79944674229374e+002°)
2.13796208950223e+000	(-3.02536253812689e+000dB,1.79943385524467e+002°)
2.18776162394955e+000	(-3.02536225779585e+000dB,1.79942066801612e+002°)
2.23872113856834e+000	(-3.02536196425321e+000dB,1.79940717361590e+002°)
2.29086765276777e+000	(-3.02536165687634e+000dB,1.79939336488895e+002°)
2.34422881531992e+000	(-3.02536133501327e+000dB,1.79937923451353e+002°)
2.39883291901949e+000	(-3.02536099798126e+000dB,1.79936477499735e+002°)
2.45470891568503e+000	(-3.02536064506543e+000dB,1.79934997867359e+002°)
2.51188643150958e+000	(-3.02536027551721e+000dB,1.79933483769684e+002°)
2.57039578276886e+000	(-3.02535988855275e+000dB,1.79931934403893e+002°)
2.63026799189538e+000	(-3.02535948335122e+000dB,1.79930348948468e+002°)
2.69153480392691e+000	(-3.02535905905314e+000dB,1.79928726562755e+002°)
2.75422870333816e+000	(-3.02535861475854e+000dB,1.79927066386516e+002°)
2.81838293126445e+000	(-3.02535814952500e+000dB,1.79925367539474e+002°)
2.88403150312660e+000	(-3.02535766236570e+000dB,1.79923629120847e+002°)
2.95120922666638e+000	(-3.02535715224733e+000dB,1.79921850208870e+002°)
3.01995172040201e+000	(-3.02535661808784e+000dB,1.79920029860304e+002°)
3.09029543251359e+000	(-3.02535605875423e+000dB,1.79918167109938e+002°)
3.16227766016837e+000	(-3.02535547306006e+000dB,1.79916260970075e+002°)
3.23593656929628e+000	(-3.02535485976303e+000dB,1.79914310430011e+002°)
3.31131121482591e+000	(-3.02535421756224e+000dB,1.79912314455498e+002°)
3.38844156139202e+000	(-3.02535354509550e+000dB,1.79910271988192e+002°)
3.46736850452531e+000	(-3.02535284093644e+000dB,1.79908181945096e+002°)
3.54813389233575e+000	(-3.02535210359144e+000dB,1.79906043217984e+002°)
3.63078054770101e+000	(-3.02535133149650e+000dB,1.79903854672811e+002°)
3.71535229097172e+000	(-3.02535052301391e+000dB,1.79901615149117e+002°)
3.80189396320560e+000	(-3.02534967642880e+000dB,1.79899323459404e+002°)
3.89045144994280e+000	(-3.02534878994544e+000dB,1.79896978388512e+002°)
3.98107170553496e+000	(-3.02534786168349e+000dB,1.79894578692972e+002°)
4.07380277804112e+000	(-3.02534688967401e+000dB,1.79892123100345e+002°)
4.16869383470335e+000	(-3.02534587185523e+000dB,1.79889610308550e+002°)
4.26579518801592e+000	(-3.02534480606826e+000dB,1.79887038985170e+002°)
4.36515832240165e+000	(-3.02534369005243e+000dB,1.79884407766748e+002°)
4.46683592150962e+000	(-3.02534252144053e+000dB,1.79881715258061e+002°)
4.57088189614874e+000	(-3.02534129775381e+000dB,1.79878960031383e+002°)
4.67735141287197e+000	(-3.02534001639668e+000dB,1.79876140625721e+002°)
4.78630092322637e+000	(-3.02533867465124e+000dB,1.79873255546048e+002°)
4.89778819368445e+000	(-3.02533726967149e+000dB,1.79870303262505e+002°)
5.01187233627271e+000	(-3.02533579847732e+000dB,1.79867282209587e+002°)
5.12861383991364e+000	(-3.02533425794815e+000dB,1.79864190785318e+002°)
5.24807460249771e+000	(-3.02533264481634e+000dB,1.79861027350395e+002°)
5.37031796370252e+000	(-3.02533095566028e+000dB,1.79857790227324e+002°)
5.49540873857623e+000	(-3.02532918689708e+000dB,1.79854477699523e+002°)
5.62341325190348e+000	(-3.02532733477499e+000dB,1.79851088010415e+002°)
5.75439937337156e+000	(-3.02532539536547e+000dB,1.79847619362495e+002°)
5.88843655355588e+000	(-3.02532336455483e+000dB,1.79844069916375e+002°)
6.02559586074356e+000	(-3.02532123803551e+000dB,1.79840437789808e+002°)
6.16595001861481e+000	(-3.02531901129694e+000dB,1.79836721056688e+002°)
6.30957344480192e+000	(-3.02531667961599e+000dB,1.79832917746029e+002°)
6.45654229034654e+000	(-3.02531423804692e+000dB,1.79829025840914e+002°)
6.60693448007594e+000	(-3.02531168141094e+000dB,1.79825043277432e+002°)
6.76082975391980e+000	(-3.02530900428516e+000dB,1.79820967943571e+002°)
6.91830970918935e+000	(-3.02530620099116e+000dB,1.79816797678108e+002°)
7.07945784384136e+000	(-3.02530326558290e+000dB,1.79812530269452e+002°)
7.24435960074988e+000	(-3.02530019183408e+000dB,1.79808163454472e+002°)
7.41310241300916e+000	(-3.02529697322504e+000dB,1.79803694917298e+002°)
7.58577575029182e+000	(-3.02529360292883e+000dB,1.79799122288085e+002°)
7.76247116628690e+000	(-3.02529007379675e+000dB,1.79794443141758e+002°)
7.94328234724279e+000	(-3.02528637834324e+000dB,1.79789654996721e+002°)
8.12830516164097e+000	(-3.02528250872994e+000dB,1.79784755313540e+002°)
8.31763771102669e+000	(-3.02527845674910e+000dB,1.79779741493591e+002°)
8.51138038202374e+000	(-3.02527421380618e+000dB,1.79774610877681e+002°)
8.70963589956078e+000	(-3.02526977090160e+000dB,1.79769360744630e+002°)
8.91250938133743e+000	(-3.02526511861165e+000dB,1.79763988309832e+002°)
9.12010839355907e+000	(-3.02526024706852e+000dB,1.79758490723766e+002°)
9.33254300796988e+000	(-3.02525514593937e+000dB,1.79752865070484e+002°)
9.54992586021433e+000	(-3.02524980440440e+000dB,1.79747108366060e+002°)
9.77237220955808e+000	(-3.02524421113392e+000dB,1.79741217557003e+002°)
9.99999999999997e+000	(-3.02523835426434e+000dB,1.79735189518630e+002°)
1.02329299228075e+001	(-3.02523222137294e+000dB,1.79729021053405e+002°)
1.04712854805090e+001	(-3.02522579945160e+000dB,1.79722708889236e+002°)
1.07151930523760e+001	(-3.02521907487919e+000dB,1.79716249677734e+002°)
1.09647819614318e+001	(-3.02521203339265e+000dB,1.79709639992429e+002°)
1.12201845430196e+001	(-3.02520466005678e+000dB,1.79702876326946e+002°)
1.14815362149688e+001	(-3.02519693923255e+000dB,1.79695955093135e+002°)
1.17489755493953e+001	(-3.02518885454395e+000dB,1.79688872619164e+002°)
1.20226443461741e+001	(-3.02518038884325e+000dB,1.79681625147554e+002°)
1.23026877081238e+001	(-3.02517152417462e+000dB,1.79674208833186e+002°)
1.25892541179416e+001	(-3.02516224173606e+000dB,1.79666619741241e+002°)
1.28824955169313e+001	(-3.02515252183958e+000dB,1.79658853845109e+002°)
1.31825673855640e+001	(-3.02514234386937e+000dB,1.79650907024236e+002°)
1.34896288259165e+001	(-3.02513168623813e+000dB,1.79642775061927e+002°)
1.38038426460288e+001	(-3.02512052634128e+000dB,1.79634453643096e+002°)
1.41253754462275e+001	(-3.02510884050903e+000dB,1.79625938351959e+002°)
1.44543977074592e+001	(-3.02509660395620e+000dB,1.79617224669677e+002°)
1.47910838816820e+001	(-3.02508379072965e+000dB,1.79608307971941e+002°)
1.51356124843620e+001	(-3.02507037365324e+000dB,1.79599183526502e+002°)
1.54881661891248e+001	(-3.02505632427023e+000dB,1.79589846490636e+002°)
1.58489319246111e+001	(-3.02504161278292e+000dB,1.79580291908557e+002°)
1.62181009735892e+001	(-3.02502620798951e+000dB,1.79570514708765e+002°)
1.65958690743755e+001	(-3.02501007721787e+000dB,1.79560509701326e+002°)
1.69824365246174e+001	(-3.02499318625636e+000dB,1.79550271575099e+002°)
1.73780082874937e+001	(-3.02497549928121e+000dB,1.79539794894883e+002°)
1.77827941003892e+001	(-3.02495697878063e+000dB,1.79529074098506e+002°)
1.81970085860998e+001	(-3.02493758547525e+000dB,1.79518103493840e+002°)
1.86208713666286e+001	(-3.02491727823486e+000dB,1.79506877255748e+002°)
1.90546071796324e+001	(-3.02489601399123e+000dB,1.79495389422952e+002°)
1.94984459975804e+001	(-3.02487374764674e+000dB,1.79483633894831e+002°)
1.99526231496887e+001	(-3.02485043197887e+000dB,1.79471604428139e+002°)
2.04173794466952e+001	(-3.02482601754005e+000dB,1.79459294633649e+002°)
2.08929613085403e+001	(-3.02480045255284e+000dB,1.79446697972710e+002°)
2.13796208950222e+001	(-3.02477368280019e+000dB,1.79433807753723e+002°)
2.18776162394954e+001	(-3.02474565151052e+000dB,1.79420617128535e+002°)
2.23872113856833e+001	(-3.02471629923739e+000dB,1.79407119088739e+002°)
2.29086765276776e+001	(-3.02468556373351e+000dB,1.79393306461893e+002°)
2.34422881531991e+001	(-3.02465337981879e+000dB,1.79379171907641e+002°)
2.39883291901948e+001	(-3.02461967924226e+000dB,1.79364707913740e+002°)
2.45470891568502e+001	(-3.02458439053735e+000dB,1.79349906791993e+002°)
2.51188643150957e+001	(-3.02454743887050e+000dB,1.79334760674078e+002°)
2.57039578276885e+001	(-3.02450874588260e+000dB,1.79319261507283e+002°)
2.63026799189537e+001	(-3.02446822952290e+000dB,1.79303401050127e+002°)
2.69153480392690e+001	(-3.02442580387518e+000dB,1.79287170867876e+002°)
2.75422870333815e+001	(-3.02438137897575e+000dB,1.79270562327957e+002°)
2.81838293126444e+001	(-3.02433486062278e+000dB,1.79253566595242e+002°)
2.88403150312659e+001	(-3.02428615017683e+000dB,1.79236174627234e+002°)
2.95120922666637e+001	(-3.02423514435180e+000dB,1.79218377169115e+002°)
3.01995172040200e+001	(-3.02418173499623e+000dB,1.79200164748687e+002°)
3.09029543251358e+001	(-3.02412580886418e+000dB,1.79181527671175e+002°)
3.16227766016837e+001	(-3.02406724737536e+000dB,1.79162456013903e+002°)
3.23593656929627e+001	(-3.02400592636407e+000dB,1.79142939620839e+002°)
3.31131121482590e+001	(-3.02394171581621e+000dB,1.79122968097001e+002°)
3.38844156139201e+001	(-3.02387447959397e+000dB,1.79102530802715e+002°)
3.46736850452530e+001	(-3.02380407514765e+000dB,1.79081616847737e+002°)
3.54813389233574e+001	(-3.02373035321380e+000dB,1.79060215085221e+002°)
3.63078054770100e+001	(-3.02365315749928e+000dB,1.79038314105527e+002°)
3.71535229097171e+001	(-3.02357232435038e+000dB,1.79015902229878e+002°)
3.80189396320559e+001	(-3.02348768240653e+000dB,1.78992967503848e+002°)
3.89045144994279e+001	(-3.02339905223757e+000dB,1.78969497690683e+002°)
3.98107170553495e+001	(-3.02330624596412e+000dB,1.78945480264450e+002°)
4.07380277804111e+001	(-3.02320906686000e+000dB,1.78920902402997e+002°)
4.16869383470333e+001	(-3.02310730893612e+000dB,1.78895750980743e+002°)
4.26579518801591e+001	(-3.02300075650468e+000dB,1.78870012561263e+002°)
4.36515832240164e+001	(-3.02288918372301e+000dB,1.78843673389686e+002°)
4.46683592150961e+001	(-3.02277235411600e+000dB,1.78816719384881e+002°)
4.57088189614873e+001	(-3.02265002007603e+000dB,1.78789136131442e+002°)
4.67735141287196e+001	(-3.02252192233955e+000dB,1.78760908871447e+002°)
4.78630092322636e+001	(-3.02238778943902e+000dB,1.78732022496002e+002°)
4.89778819368444e+001	(-3.02224733712921e+000dB,1.78702461536546e+002°)
5.01187233627270e+001	(-3.02210026778654e+000dB,1.78672210155918e+002°)
5.12861383991362e+001	(-3.02194626978032e+000dB,1.78641252139182e+002°)
5.24807460249770e+001	(-3.02178501681450e+000dB,1.78609570884187e+002°)
5.37031796370250e+001	(-3.02161616723855e+000dB,1.78577149391865e+002°)
5.49540873857622e+001	(-3.02143936332615e+000dB,1.78543970256261e+002°)
5.62341325190346e+001	(-3.02125423051999e+000dB,1.78510015654263e+002°)
5.75439937337154e+001	(-3.02106037664132e+000dB,1.78475267335052e+002°)
5.88843655355586e+001	(-3.02085739106247e+000dB,1.78439706609239e+002°)
6.02559586074355e+001	(-3.02064484384064e+000dB,1.78403314337681e+002°)
6.16595001861479e+001	(-3.02042228481126e+000dB,1.78366070919975e+002°)
6.30957344480190e+001	(-3.02018924263889e+000dB,1.78327956282605e+002°)
6.45654229034652e+001	(-3.01994522382383e+000dB,1.78288949866733e+002°)
6.60693448007593e+001	(-3.01968971166231e+000dB,1.78249030615624e+002°)
6.76082975391978e+001	(-3.01942216515818e+000dB,1.78208176961680e+002°)
6.91830970918933e+001	(-3.01914201788373e+000dB,1.78166366813085e+002°)
7.07945784384134e+001	(-3.01884867678752e+000dB,1.78123577540020e+002°)
7.24435960074986e+001	(-3.01854152094650e+000dB,1.78079785960455e+002°)
7.41310241300914e+001	(-3.01821990026010e+000dB,1.78034968325485e+002°)
7.58577575029180e+001	(-3.01788313408344e+000dB,1.77989100304195e+002°)
7.76247116628688e+001	(-3.01753050979704e+000dB,1.77942156968034e+002°)
7.94328234724277e+001	(-3.01716128130988e+000dB,1.77894112774676e+002°)
8.12830516164095e+001	(-3.01677466749303e+000dB,1.77844941551344e+002°)
8.31763771102667e+001	(-3.01636985054046e+000dB,1.77794616477579e+002°)
8.51138038202372e+001	(-3.01594597425382e+000dB,1.77743110067418e+002°)
8.70963589956076e+001	(-3.01550214224769e+000dB,1.77690394150963e+002°)
8.91250938133741e+001	(-3.01503741607164e+000dB,1.77636439855311e+002°)
9.12010839355905e+001	(-3.01455081324545e+000dB,1.77581217584809e+002°)
9.33254300796986e+001	(-3.01404130520337e+000dB,1.77524697000610e+002°)
9.54992586021431e+001	(-3.01350781514349e+000dB,1.77466846999490e+002°)
9.77237220955805e+001	(-3.01294921577776e+000dB,1.77407635691894e+002°)
9.99999999999995e+001	(-3.01236432697840e+000dB,1.77347030379171e+002°)
1.02329299228075e+002	(-3.01175191331579e+000dB,1.77284997529951e+002°)
1.04712854805089e+002	(-3.01111068148321e+000dB,1.77221502755638e+002°)
1.07151930523760e+002	(-3.01043927760329e+000dB,1.77156510784953e+002°)
1.09647819614318e+002	(-3.00973628441079e+000dB,1.77089985437487e+002°)
1.12201845430196e+002	(-3.00900021830643e+000dB,1.77021889596222e+002°)
1.14815362149688e+002	(-3.00822952627593e+000dB,1.76952185178940e+002°)
1.17489755493952e+002	(-3.00742258266838e+000dB,1.76880833108486e+002°)
1.20226443461741e+002	(-3.00657768582763e+000dB,1.76807793281810e+002°)
1.23026877081237e+002	(-3.00569305457053e+000dB,1.76733024537721e+002°)
1.25892541179416e+002	(-3.00476682450517e+000dB,1.76656484623284e+002°)
1.28824955169313e+002	(-3.00379704418210e+000dB,1.76578130158783e+002°)
1.31825673855640e+002	(-3.00278167107169e+000dB,1.76497916601171e+002°)
1.34896288259165e+002	(-3.00171856735974e+000dB,1.76415798205918e+002°)
1.38038426460288e+002	(-3.00060549555399e+000dB,1.76331727987163e+002°)
1.41253754462275e+002	(-2.99944011389322e+000dB,1.76245657676074e+002°)
1.44543977074592e+002	(-2.99821997155087e+000dB,1.76157537677313e+002°)
1.47910838816820e+002	(-2.99694250362445e+000dB,1.76067317023483e+002°)
1.51356124843620e+002	(-2.99560502590198e+000dB,1.75974943327451e+002°)
1.54881661891247e+002	(-2.99420472939626e+000dB,1.75880362732401e+002°)
1.58489319246110e+002	(-2.99273867463753e+000dB,1.75783519859495e+002°)
1.62181009735892e+002	(-2.99120378571489e+000dB,1.75684357752986e+002°)
1.65958690743755e+002	(-2.98959684405634e+000dB,1.75582817822618e+002°)
1.69824365246173e+002	(-2.98791448193729e+000dB,1.75478839783167e+002°)
1.73780082874936e+002	(-2.98615317570700e+000dB,1.75372361590906e+002°)
1.77827941003891e+002	(-2.98430923872213e+000dB,1.75263319376834e+002°)
1.81970085860997e+002	(-2.98237881397642e+000dB,1.75151647376443e+002°)
1.86208713666286e+002	(-2.98035786641533e+000dB,1.75037277855792e+002°)
1.90546071796323e+002	(-2.97824217492414e+000dB,1.74920141033670e+002°)
1.94984459975803e+002	(-2.97602732397804e+000dB,1.74800164999568e+002°)
1.99526231496887e+002	(-2.97370869494256e+000dB,1.74677275627202e+002°)
2.04173794466952e+002	(-2.97128145701249e+000dB,1.74551396483271e+002°)
2.08929613085403e+002	(-2.96874055777762e+000dB,1.74422448731150e+002°)
2.13796208950222e+002	(-2.96608071340364e+000dB,1.74290351029163e+002°)
2.18776162394954e+002	(-2.96329639841638e+000dB,1.74155019423069e+002°)
2.23872113856832e+002	(-2.96038183507836e+000dB,1.74016367232366e+002°)
2.29086765276776e+002	(-2.95733098234615e+000dB,1.73874304929990e+002°)
2.34422881531991e+002	(-2.95413752439827e+000dB,1.73728740014944e+002°)
2.39883291901947e+002	(-2.95079485872325e+000dB,1.73579576877367e+002°)
2.45470891568501e+002	(-2.94729608375855e+000dB,1.73426716655509e+002°)
2.51188643150956e+002	(-2.94363398607194e+000dB,1.73270057084044e+002°)
2.57039578276885e+002	(-2.93980102707777e+000dB,1.73109492333091e+002°)
2.63026799189536e+002	(-2.93578932928228e+000dB,1.72944912837298e+002°)
2.69153480392690e+002	(-2.93159066205338e+000dB,1.72776205114252e+002°)
2.75422870333815e+002	(-2.92719642691250e+000dB,1.72603251571451e+002°)
2.81838293126443e+002	(-2.92259764234837e+000dB,1.72425930301004e+002°)
2.88403150312659e+002	(-2.91778492815521e+000dB,1.72244114861148e+002°)
2.95120922666637e+002	(-2.91274848930127e+000dB,1.72057674043624e+002°)
3.01995172040200e+002	(-2.90747809933712e+000dB,1.71866471625852e+002°)
3.09029543251357e+002	(-2.90196308335770e+000dB,1.71670366106760e+002°)
3.16227766016836e+002	(-2.89619230053740e+000dB,1.71469210425067e+002°)
3.23593656929626e+002	(-2.89015412626305e+000dB,1.71262851658664e+002°)
3.31131121482589e+002	(-2.88383643389693e+000dB,1.71051130703676e+002°)
3.38844156139200e+002	(-2.87722657621006e+000dB,1.70833881931657e+002°)
3.46736850452529e+002	(-2.87031136653489e+000dB,1.70610932823216e+002°)
3.54813389233573e+002	(-2.86307705969786e+000dB,1.70382103576290e+002°)
3.63078054770099e+002	(-2.85550933280425e+000dB,1.70147206687076e+002°)
3.71535229097170e+002	(-2.84759326596240e+000dB,1.69906046501491e+002°)
3.80189396320558e+002	(-2.83931332305088e+000dB,1.69658418734879e+002°)
3.89045144994278e+002	(-2.83065333265108e+000dB,1.69404109957446e+002°)
3.98107170553494e+002	(-2.82159646929003e+000dB,1.69142897042726e+002°)
4.07380277804110e+002	(-2.81212523516326e+000dB,1.68874546576161e+002°)
4.16869383470332e+002	(-2.80222144253671e+000dB,1.68598814220611e+002°)
4.26579518801589e+002	(-2.79186619706058e+000dB,1.68315444035377e+002°)
4.36515832240163e+002	(-2.78103988226610e+000dB,1.68024167744992e+002°)
4.46683592150960e+002	(-2.76972214556113e+000dB,1.67724703953800e+002°)
4.57088189614872e+002	(-2.75789188609148e+000dB,1.67416757301916e+002°)
4.67735141287195e+002	(-2.74552724489365e+000dB,1.67100017557904e+002°)
4.78630092322635e+002	(-2.73260559783286e+000dB,1.66774158643051e+002°)
4.89778819368443e+002	(-2.71910355189767e+000dB,1.66438837581744e+002°)
5.01187233627268e+002	(-2.70499694551315e+000dB,1.66093693372018e+002°)
5.12861383991361e+002	(-2.69026085363743e+000dB,1.65738345769866e+002°)
5.24807460249769e+002	(-2.67486959852600e+000dB,1.65372393980426e+002°)
5.37031796370249e+002	(-2.65879676718519e+000dB,1.64995415248623e+002°)
5.49540873857620e+002	(-2.64201523669463e+000dB,1.64606963341343e+002°)
5.62341325190345e+002	(-2.62449720876033e+000dB,1.64206566912595e+002°)
5.75439937337152e+002	(-2.60621425507031e+000dB,1.63793727742629e+002°)
